    * /home/santhosh.ldc20/esim-workspace/test_adcbridge/test_adcbridge.cir
    Transient Analysis  Sat Oct  8 11:55:46  2022
--------------------------------------------------------------------------------
Index   time            vin             vout            
--------------------------------------------------------------------------------
0	0.000000e+00	0.000000e+00	0.000000e+00	
1	1.000000e-05	0.000000e+00	0.000000e+00	
2	2.000000e-05	0.000000e+00	0.000000e+00	
3	4.000000e-05	0.000000e+00	0.000000e+00	
4	8.000000e-05	0.000000e+00	0.000000e+00	
5	1.600000e-04	0.000000e+00	0.000000e+00	
6	3.200000e-04	0.000000e+00	0.000000e+00	
7	6.400000e-04	0.000000e+00	0.000000e+00	
8	1.000000e-03	0.000000e+00	0.000000e+00	
9	1.064000e-03	1.152000e-01	0.000000e+00	
10	1.064001e-03	1.152018e-01	0.000000e+00	
11	1.064001e-03	1.152018e-01	5.000000e-02	
12	1.064001e-03	1.152019e-01	1.500000e-01	
13	1.064001e-03	1.152021e-01	3.500000e-01	
14	1.064001e-03	1.152023e-01	5.000000e-01	
15	1.064001e-03	1.152023e-01	5.000000e-01	
16	1.064001e-03	1.152024e-01	5.000000e-01	
17	1.064001e-03	1.152026e-01	5.000000e-01	
18	1.064002e-03	1.152029e-01	5.000000e-01	
19	1.064002e-03	1.152035e-01	5.000000e-01	
20	1.064003e-03	1.152048e-01	5.000000e-01	
21	1.064004e-03	1.152074e-01	5.000000e-01	
22	1.064007e-03	1.152125e-01	5.000000e-01	
23	1.064013e-03	1.152227e-01	5.000000e-01	
24	1.064024e-03	1.152432e-01	5.000000e-01	
25	1.064047e-03	1.152842e-01	5.000000e-01	
26	1.064092e-03	1.153661e-01	5.000000e-01	
27	1.064183e-03	1.155299e-01	5.000000e-01	
28	1.064365e-03	1.158576e-01	5.000000e-01	
29	1.064729e-03	1.165130e-01	5.000000e-01	
30	1.065458e-03	1.178237e-01	5.000000e-01	
31	1.066914e-03	1.204451e-01	5.000000e-01	
32	1.069827e-03	1.256880e-01	5.000000e-01	
33	1.075652e-03	1.361738e-01	5.000000e-01	
34	1.087303e-03	1.571453e-01	5.000000e-01	
35	1.110605e-03	1.990883e-01	5.000000e-01	
36	1.157208e-03	2.829744e-01	5.000000e-01	
37	1.250415e-03	4.507466e-01	5.000000e-01	
38	1.436828e-03	7.862909e-01	5.000000e-01	
39	1.809655e-03	1.457380e+00	5.000000e-01	
40	2.000000e-03	1.800000e+00	5.000000e-01	
41	2.000001e-03	1.800000e+00	5.000000e-01	
42	2.000001e-03	1.800000e+00	6.300000e-01	
43	2.000001e-03	1.800000e+00	8.900000e-01	
44	2.000002e-03	1.800000e+00	1.410000e+00	
45	2.000002e-03	1.800000e+00	1.800000e+00	
46	2.000002e-03	1.800000e+00	1.800000e+00	
47	2.000002e-03	1.800000e+00	1.800000e+00	
48	2.000002e-03	1.800000e+00	1.800000e+00	
49	2.000003e-03	1.800000e+00	1.800000e+00	
50	2.000004e-03	1.800000e+00	1.800000e+00	
51	2.000005e-03	1.800000e+00	1.800000e+00	
52	2.000009e-03	1.800000e+00	1.800000e+00	
53	2.000016e-03	1.800000e+00	1.800000e+00	
54	2.000031e-03	1.800000e+00	1.800000e+00	

Index   time            vin             vout            
--------------------------------------------------------------------------------
55	2.000061e-03	1.800000e+00	1.800000e+00	
56	2.000120e-03	1.800000e+00	1.800000e+00	
57	2.000238e-03	1.800000e+00	1.800000e+00	
58	2.000475e-03	1.800000e+00	1.800000e+00	
59	2.000948e-03	1.800000e+00	1.800000e+00	
60	2.001895e-03	1.800000e+00	1.800000e+00	
61	2.003788e-03	1.800000e+00	1.800000e+00	
62	2.007575e-03	1.800000e+00	1.800000e+00	
63	2.015148e-03	1.800000e+00	1.800000e+00	
64	2.030294e-03	1.800000e+00	1.800000e+00	
65	2.060586e-03	1.800000e+00	1.800000e+00	
66	2.121170e-03	1.800000e+00	1.800000e+00	
67	2.242339e-03	1.800000e+00	1.800000e+00	
68	2.484677e-03	1.800000e+00	1.800000e+00	
69	2.969352e-03	1.800000e+00	1.800000e+00	
70	3.938702e-03	1.800000e+00	1.800000e+00	
71	5.877403e-03	1.800000e+00	1.800000e+00	
72	9.754804e-03	1.800000e+00	1.800000e+00	
73	1.750961e-02	1.800000e+00	1.800000e+00	
74	3.301921e-02	1.800000e+00	1.800000e+00	
75	6.301921e-02	1.800000e+00	1.800000e+00	
76	9.301921e-02	1.800000e+00	1.800000e+00	
77	1.230192e-01	1.800000e+00	1.800000e+00	
78	1.530192e-01	1.800000e+00	1.800000e+00	
79	1.830192e-01	1.800000e+00	1.800000e+00	
80	2.130192e-01	1.800000e+00	1.800000e+00	
81	2.430192e-01	1.800000e+00	1.800000e+00	
82	2.730192e-01	1.800000e+00	1.800000e+00	
83	3.030192e-01	1.800000e+00	1.800000e+00	
84	3.330192e-01	1.800000e+00	1.800000e+00	
85	3.630192e-01	1.800000e+00	1.800000e+00	
86	3.930192e-01	1.800000e+00	1.800000e+00	
87	4.230192e-01	1.800000e+00	1.800000e+00	
88	4.530192e-01	1.800000e+00	1.800000e+00	
89	4.830192e-01	1.800000e+00	1.800000e+00	
90	5.020000e-01	1.800000e+00	1.800000e+00	
91	5.021000e-01	1.620000e+00	1.800000e+00	
92	5.021000e-01	1.619998e+00	1.800000e+00	
93	5.021000e-01	1.619998e+00	1.670000e+00	
94	5.021000e-01	1.619998e+00	1.410000e+00	
95	5.021000e-01	1.619997e+00	8.899999e-01	
96	5.021000e-01	1.619997e+00	5.000001e-01	
97	5.021000e-01	1.619997e+00	5.000000e-01	
98	5.021000e-01	1.619997e+00	5.000000e-01	
99	5.021000e-01	1.619996e+00	5.000000e-01	
100	5.021000e-01	1.619995e+00	5.000000e-01	
101	5.021000e-01	1.619994e+00	5.000000e-01	
102	5.021000e-01	1.619990e+00	5.000000e-01	
103	5.021000e-01	1.619984e+00	5.000000e-01	
104	5.021000e-01	1.619970e+00	5.000000e-01	
105	5.021000e-01	1.619944e+00	5.000000e-01	
106	5.021001e-01	1.619891e+00	5.000000e-01	
107	5.021001e-01	1.619784e+00	5.000000e-01	
108	5.021002e-01	1.619571e+00	5.000000e-01	
109	5.021005e-01	1.619145e+00	5.000000e-01	
110	5.021009e-01	1.618293e+00	5.000000e-01	
111	5.021019e-01	1.616589e+00	5.000000e-01	
112	5.021038e-01	1.613181e+00	5.000000e-01	

Index   time            vin             vout            
--------------------------------------------------------------------------------
113	5.021076e-01	1.606366e+00	5.000000e-01	
114	5.021151e-01	1.592734e+00	5.000000e-01	
115	5.021303e-01	1.565471e+00	5.000000e-01	
116	5.021606e-01	1.510945e+00	5.000000e-01	
117	5.022212e-01	1.401893e+00	5.000000e-01	
118	5.023423e-01	1.183789e+00	5.000000e-01	
119	5.025847e-01	7.475818e-01	5.000000e-01	
120	5.030000e-01	0.000000e+00	5.000000e-01	
121	5.030000e-01	0.000000e+00	5.000000e-01	
122	5.030000e-01	0.000000e+00	4.500000e-01	
123	5.030000e-01	0.000000e+00	3.500000e-01	
124	5.030000e-01	0.000000e+00	1.500000e-01	
125	5.030000e-01	0.000000e+00	0.000000e+00	
126	5.030000e-01	0.000000e+00	0.000000e+00	
127	5.030000e-01	0.000000e+00	0.000000e+00	
128	5.030000e-01	0.000000e+00	0.000000e+00	
129	5.030000e-01	0.000000e+00	0.000000e+00	
130	5.030000e-01	0.000000e+00	0.000000e+00	
131	5.030000e-01	0.000000e+00	0.000000e+00	
132	5.030000e-01	0.000000e+00	0.000000e+00	
133	5.030000e-01	0.000000e+00	0.000000e+00	
134	5.030000e-01	0.000000e+00	0.000000e+00	
135	5.030000e-01	0.000000e+00	0.000000e+00	
136	5.030000e-01	0.000000e+00	0.000000e+00	
137	5.030001e-01	0.000000e+00	0.000000e+00	
138	5.030002e-01	0.000000e+00	0.000000e+00	
139	5.030004e-01	0.000000e+00	0.000000e+00	
140	5.030007e-01	0.000000e+00	0.000000e+00	
141	5.030015e-01	0.000000e+00	0.000000e+00	
142	5.030029e-01	0.000000e+00	0.000000e+00	
143	5.030058e-01	0.000000e+00	0.000000e+00	
144	5.030117e-01	0.000000e+00	0.000000e+00	
145	5.030233e-01	0.000000e+00	0.000000e+00	
146	5.030466e-01	0.000000e+00	0.000000e+00	
147	5.030932e-01	0.000000e+00	0.000000e+00	
148	5.031864e-01	0.000000e+00	0.000000e+00	
149	5.033728e-01	0.000000e+00	0.000000e+00	
150	5.037457e-01	0.000000e+00	0.000000e+00	
151	5.044913e-01	0.000000e+00	0.000000e+00	
152	5.059826e-01	0.000000e+00	0.000000e+00	
153	5.089652e-01	0.000000e+00	0.000000e+00	
154	5.149305e-01	0.000000e+00	0.000000e+00	
155	5.268609e-01	0.000000e+00	0.000000e+00	
156	5.507219e-01	0.000000e+00	0.000000e+00	
157	5.807219e-01	0.000000e+00	0.000000e+00	
158	6.107219e-01	0.000000e+00	0.000000e+00	
159	6.407219e-01	0.000000e+00	0.000000e+00	
160	6.707219e-01	0.000000e+00	0.000000e+00	
161	7.007219e-01	0.000000e+00	0.000000e+00	
162	7.307219e-01	0.000000e+00	0.000000e+00	
163	7.607219e-01	0.000000e+00	0.000000e+00	
164	7.907219e-01	0.000000e+00	0.000000e+00	
165	8.207219e-01	0.000000e+00	0.000000e+00	
166	8.507219e-01	0.000000e+00	0.000000e+00	
167	8.807219e-01	0.000000e+00	0.000000e+00	
168	9.107219e-01	0.000000e+00	0.000000e+00	
169	9.407219e-01	0.000000e+00	0.000000e+00	
170	9.707219e-01	0.000000e+00	0.000000e+00	

Index   time            vin             vout            
--------------------------------------------------------------------------------
171	1.000722e+00	0.000000e+00	0.000000e+00	
172	1.001000e+00	0.000000e+00	0.000000e+00	
173	1.001100e+00	1.800000e-01	0.000000e+00	
174	1.001100e+00	1.800018e-01	0.000000e+00	
175	1.001100e+00	1.800019e-01	5.000000e-02	
176	1.001100e+00	1.800020e-01	1.500000e-01	
177	1.001100e+00	1.800022e-01	3.500000e-01	
178	1.001100e+00	1.800023e-01	5.000000e-01	
179	1.001100e+00	1.800023e-01	5.000000e-01	
180	1.001100e+00	1.800024e-01	5.000000e-01	
181	1.001100e+00	1.800026e-01	5.000000e-01	
182	1.001100e+00	1.800029e-01	5.000000e-01	
183	1.001100e+00	1.800035e-01	5.000000e-01	
184	1.001100e+00	1.800048e-01	5.000000e-01	
185	1.001100e+00	1.800074e-01	5.000000e-01	
186	1.001100e+00	1.800125e-01	5.000000e-01	
187	1.001100e+00	1.800227e-01	5.000000e-01	
188	1.001100e+00	1.800432e-01	5.000000e-01	
189	1.001100e+00	1.800842e-01	5.000000e-01	
190	1.001100e+00	1.801661e-01	5.000000e-01	
191	1.001100e+00	1.803299e-01	5.000000e-01	
192	1.001100e+00	1.806576e-01	5.000000e-01	
193	1.001101e+00	1.813130e-01	5.000000e-01	
194	1.001101e+00	1.826237e-01	5.000000e-01	
195	1.001103e+00	1.852451e-01	5.000000e-01	
196	1.001106e+00	1.904880e-01	5.000000e-01	
197	1.001112e+00	2.009738e-01	5.000000e-01	
198	1.001123e+00	2.219453e-01	5.000000e-01	
199	1.001147e+00	2.638883e-01	5.000000e-01	
200	1.001193e+00	3.477744e-01	5.000000e-01	
201	1.001286e+00	5.155466e-01	5.000000e-01	
202	1.001473e+00	8.510910e-01	5.000000e-01	
203	1.001846e+00	1.522180e+00	5.000000e-01	
204	1.002000e+00	1.800000e+00	5.000000e-01	
205	1.002000e+00	1.800000e+00	5.000000e-01	
206	1.002000e+00	1.800000e+00	6.300000e-01	
207	1.002000e+00	1.800000e+00	8.900000e-01	
208	1.002000e+00	1.800000e+00	1.410000e+00	
209	1.002000e+00	1.800000e+00	1.800000e+00	
210	1.002000e+00	1.800000e+00	1.800000e+00	
211	1.002000e+00	1.800000e+00	1.800000e+00	
212	1.002000e+00	1.800000e+00	1.800000e+00	
213	1.002000e+00	1.800000e+00	1.800000e+00	
214	1.002000e+00	1.800000e+00	1.800000e+00	
215	1.002000e+00	1.800000e+00	1.800000e+00	
216	1.002000e+00	1.800000e+00	1.800000e+00	
217	1.002000e+00	1.800000e+00	1.800000e+00	
218	1.002000e+00	1.800000e+00	1.800000e+00	
219	1.002000e+00	1.800000e+00	1.800000e+00	
220	1.002000e+00	1.800000e+00	1.800000e+00	
221	1.002000e+00	1.800000e+00	1.800000e+00	
222	1.002000e+00	1.800000e+00	1.800000e+00	
223	1.002001e+00	1.800000e+00	1.800000e+00	
224	1.002002e+00	1.800000e+00	1.800000e+00	
225	1.002004e+00	1.800000e+00	1.800000e+00	
226	1.002008e+00	1.800000e+00	1.800000e+00	
227	1.002015e+00	1.800000e+00	1.800000e+00	
228	1.002030e+00	1.800000e+00	1.800000e+00	

Index   time            vin             vout            
--------------------------------------------------------------------------------
229	1.002061e+00	1.800000e+00	1.800000e+00	
230	1.002121e+00	1.800000e+00	1.800000e+00	
231	1.002242e+00	1.800000e+00	1.800000e+00	
232	1.002485e+00	1.800000e+00	1.800000e+00	
233	1.002969e+00	1.800000e+00	1.800000e+00	
234	1.003939e+00	1.800000e+00	1.800000e+00	
235	1.005877e+00	1.800000e+00	1.800000e+00	
236	1.009755e+00	1.800000e+00	1.800000e+00	
237	1.017510e+00	1.800000e+00	1.800000e+00	
238	1.033019e+00	1.800000e+00	1.800000e+00	
239	1.063019e+00	1.800000e+00	1.800000e+00	
240	1.093019e+00	1.800000e+00	1.800000e+00	
241	1.123019e+00	1.800000e+00	1.800000e+00	
242	1.153019e+00	1.800000e+00	1.800000e+00	
243	1.183019e+00	1.800000e+00	1.800000e+00	
244	1.213019e+00	1.800000e+00	1.800000e+00	
245	1.243019e+00	1.800000e+00	1.800000e+00	
246	1.273019e+00	1.800000e+00	1.800000e+00	
247	1.303019e+00	1.800000e+00	1.800000e+00	
248	1.333019e+00	1.800000e+00	1.800000e+00	
249	1.363019e+00	1.800000e+00	1.800000e+00	
250	1.393019e+00	1.800000e+00	1.800000e+00	
251	1.423019e+00	1.800000e+00	1.800000e+00	
252	1.453019e+00	1.800000e+00	1.800000e+00	
253	1.483019e+00	1.800000e+00	1.800000e+00	
254	1.500000e+00	1.800000e+00	1.800000e+00	
